TCA08 6391:342.866   SEGGER J-Link V7.00a Log File
TCA08 6391:343.040   DLL Compiled: Apr 16 2021 15:32:47
TCA08 6391:343.059   Logging started @ 2024-09-05 11:00
TCA08 6391:343.075 - 1892.323ms
TCA08 6391:343.096 JLINK_SetWarnOutHandler(...)
TCA08 6391:343.113 - 0.025ms
TCA08 6391:343.131 JLINK_OpenEx(...)
TCA08 6391:344.443   Firmware: J-Link V9 compiled May  7 2021 16:26:12
TCA08 6391:344.797   Firmware: J-Link V9 compiled May  7 2021 16:26:12
TCA08 6391:344.956   Decompressing FW timestamp took 108 us
TCA08 6391:350.883   Hardware: V9.60
TCA08 6391:350.932   S/N: 59610745
TCA08 6391:350.956   OEM: SEGGER
TCA08 6391:350.981   Feature(s): RDI, GDB, FlashDL, FlashBP, JFlash
TCA08 6391:351.908   TELNET listener socket opened on port 19021
TCA08 6391:355.437   Device "HC32F46X" selected.
TCA08 6391:356.674   WEBSRV Starting webserver
TCA08 6391:356.854   WEBSRV Webserver running on local port 19080
TCA08 6391:356.889 - 13.767ms returns "O.K."
TCA08 6391:356.923 JLINK_GetEmuCaps()
TCA08 6391:356.942 - 0.027ms returns 0xB9FF7BBF
TCA08 6391:356.962 JLINK_TIF_GetAvailable(...)
TCA08 6391:357.179 - 0.238ms
TCA08 6391:357.216 JLINK_SetErrorOutHandler(...)
TCA08 6391:357.234 - 0.026ms
TCA08 6391:357.500 JLINK_ExecCommand("ProjectFile = "E:\4.project\30.PSDK\0.psdk\payloadSDK\samples\sample_c\platform\rtos_freertos\hc32f460\03_boot\projects\JLinkSettings.ini"", ...). 
TCA08 6391:358.646   Device "HC32F46X" selected.
TCA08 6391:358.980 - 1.492ms returns 0x00
TCA08 6391:359.020 JLINK_ExecCommand("Device = HC32F460JEUA", ...). 
TCA08 6391:359.592   Device "HC32F46X" selected.
TCA08 6391:359.908 - 0.880ms returns 0x00
TCA08 6391:359.939 JLINK_GetHardwareVersion()
TCA08 6391:359.956 - 0.025ms returns 96000
TCA08 6391:359.975 JLINK_GetDLLVersion()
TCA08 6391:359.991 - 0.025ms returns 70001
TCA08 6391:360.010 JLINK_GetOEMString(...)
TCA08 6391:360.028 JLINK_GetFirmwareString(...)
TCA08 6391:360.045 - 0.029ms
TCA08 6391:360.079 JLINK_GetDLLVersion()
TCA08 6391:360.097 - 0.026ms returns 70001
TCA08 6391:360.115 JLINK_GetCompileDateTime()
TCA08 6391:360.132 - 0.025ms
TCA08 6391:360.155 JLINK_GetFirmwareString(...)
TCA08 6391:360.175 - 0.027ms
TCA08 6391:360.196 JLINK_GetHardwareVersion()
TCA08 6391:360.213 - 0.025ms returns 96000
TCA08 6391:360.235 JLINK_GetSN()
TCA08 6391:360.252 - 0.024ms returns 59610745
TCA08 6391:360.272 JLINK_GetOEMString(...)
TCA08 6391:360.298 JLINK_TIF_Select(JLINKARM_TIF_SWD)
TCA08 6391:360.969 - 0.691ms returns 0x00
TCA08 6391:361.001 JLINK_HasError()
TCA08 6391:361.020 JLINK_SetSpeed(5000)
TCA08 6391:361.158 - 0.155ms
TCA08 6391:361.188 JLINK_GetId()
TCA08 6391:361.931   Found SW-DP with ID 0x2BA01477
TCA08 6391:364.334   DPIDR: 0x2BA01477
TCA08 6391:364.372   Scanning AP map to find all available APs
TCA08 6391:364.904   AP[1]: Stopped AP scan as end of AP map has been reached
TCA08 6391:364.937   AP[0]: AHB-AP (IDR: 0x24770011)
TCA08 6391:364.965   Iterating through AP map to find AHB-AP to use
TCA08 6391:365.771   AP[0]: Core found
TCA08 6391:365.814   AP[0]: AHB-AP ROM base: 0xE00FF000
TCA08 6391:366.256   CPUID register: 0x410FC241. Implementer code: 0x41 (ARM)
TCA08 6391:366.289   Found Cortex-M4 r0p1, Little endian.
TCA08 6391:467.800   -- Max. mem block: 0x00010E60
TCA08 6391:468.006   CPU_ReadMem(4 bytes @ 0xE000EDF0)
TCA08 6391:468.314   CPU_WriteMem(4 bytes @ 0xE000EDF0)
TCA08 6391:468.617   CPU_ReadMem(4 bytes @ 0xE0002000)
TCA08 6391:468.948   FPUnit: 6 code (BP) slots and 2 literal slots
TCA08 6391:468.978   CPU_ReadMem(4 bytes @ 0xE000EDFC)
TCA08 6391:469.284   CPU_WriteMem(4 bytes @ 0xE000EDFC)
TCA08 6391:469.591   CPU_ReadMem(4 bytes @ 0xE0001000)
TCA08 6391:469.892   CPU_WriteMem(4 bytes @ 0xE0001000)
TCA08 6391:470.256   CPU_ReadMem(4 bytes @ 0xE000ED88)
TCA08 6391:470.562   CPU_WriteMem(4 bytes @ 0xE000ED88)
TCA08 6391:470.867   CPU_ReadMem(4 bytes @ 0xE000ED88)
TCA08 6391:471.175   CPU_WriteMem(4 bytes @ 0xE000ED88)
TCA08 6391:471.466   CoreSight components:
TCA08 6391:471.497   ROMTbl[0] @ E00FF000
TCA08 6391:471.520   CPU_ReadMem(64 bytes @ 0xE00FF000)
TCA08 6391:472.166   CPU_ReadMem(32 bytes @ 0xE000EFE0)
TCA08 6391:472.589   ROMTbl[0][0]: E000E000, CID: B105E00D, PID: 000BB00C SCS-M7
TCA08 6391:472.616   CPU_ReadMem(32 bytes @ 0xE0001FE0)
TCA08 6391:473.057   ROMTbl[0][1]: E0001000, CID: B105E00D, PID: 003BB002 DWT
TCA08 6391:473.089   CPU_ReadMem(32 bytes @ 0xE0002FE0)
TCA08 6391:473.497   ROMTbl[0][2]: E0002000, CID: B105E00D, PID: 002BB003 FPB
TCA08 6391:473.524   CPU_ReadMem(32 bytes @ 0xE0000FE0)
TCA08 6391:473.938   ROMTbl[0][3]: E0000000, CID: B105E00D, PID: 003BB001 ITM
TCA08 6391:473.965   CPU_ReadMem(32 bytes @ 0xE0040FE0)
TCA08 6391:474.376   ROMTbl[0][4]: E0040000, CID: B105900D, PID: 000BB9A1 TPIU
TCA08 6391:474.608 - 113.431ms returns 0x2BA01477
TCA08 6391:474.633 JLINK_GetDLLVersion()
TCA08 6391:474.649 - 0.023ms returns 70001
TCA08 6391:474.724 JLINK_CORE_GetFound()
TCA08 6391:474.742 - 0.025ms returns 0xE0000FF
TCA08 6391:474.759 JLINK_GetDebugInfo(0x100 = JLINKARM_ROM_TABLE_ADDR_INDEX)
TCA08 6391:474.775   Value=0xE00FF000
TCA08 6391:474.798 - 0.046ms returns 0
TCA08 6391:474.820 JLINK_GetDebugInfo(0x100 = JLINKARM_ROM_TABLE_ADDR_INDEX)
TCA08 6391:474.836   Value=0xE00FF000
TCA08 6391:474.859 - 0.046ms returns 0
TCA08 6391:474.875 JLINK_GetDebugInfo(0x101 = JLINKARM_DEBUG_INFO_ETM_ADDR_INDEX)
TCA08 6391:474.891   Value=0x00000000
TCA08 6391:474.914 - 0.046ms returns 0
TCA08 6391:474.932 JLINK_ReadMemEx(0xE0041FF0, 0x10 Bytes, Flags = 0x02000004)
TCA08 6391:474.952   CPU_ReadMem(16 bytes @ 0xE0041FF0)
TCA08 6391:475.308   Data:  00 00 00 00 00 00 00 00 00 00 00 00 00 00 00 00
TCA08 6391:475.334 - 0.410ms returns 16 (0x10)
TCA08 6391:475.352 JLINK_GetDebugInfo(0x102 = JLINKARM_DEBUG_INFO_MTB_ADDR_INDEX)
TCA08 6391:475.384   Value=0x00000000
TCA08 6391:475.407 - 0.063ms returns 0
TCA08 6391:475.424 JLINK_GetDebugInfo(0x103 = JLINKARM_DEBUG_INFO_TPIU_ADDR_INDEX)
TCA08 6391:475.440   Value=0xE0040000
TCA08 6391:475.463 - 0.046ms returns 0
TCA08 6391:475.479 JLINK_GetDebugInfo(0x104 = JLINKARM_DEBUG_INFO_ITM_ADDR_INDEX)
TCA08 6391:475.495   Value=0xE0000000
TCA08 6391:475.517 - 0.045ms returns 0
TCA08 6391:475.533 JLINK_GetDebugInfo(0x105 = JLINKARM_DEBUG_INFO_DWT_ADDR_INDEX)
TCA08 6391:475.549   Value=0xE0001000
TCA08 6391:475.571 - 0.046ms returns 0
TCA08 6391:475.588 JLINK_GetDebugInfo(0x106 = JLINKARM_DEBUG_INFO_FPB_ADDR_INDEX)
TCA08 6391:475.604   Value=0xE0002000
TCA08 6391:475.627 - 0.046ms returns 0
TCA08 6391:475.643 JLINK_GetDebugInfo(0x107 = JLINKARM_DEBUG_INFO_NVIC_ADDR_INDEX)
TCA08 6391:475.659   Value=0xE000E000
TCA08 6391:475.681 - 0.046ms returns 0
TCA08 6391:475.698 JLINK_GetDebugInfo(0x10C = JLINKARM_DEBUG_INFO_DBG_ADDR_INDEX)
TCA08 6391:475.714   Value=0xE000EDF0
TCA08 6391:475.737 - 0.046ms returns 0
TCA08 6391:475.753 JLINK_GetDebugInfo(0x01 = Unknown)
TCA08 6391:475.769   Value=0x00000001
TCA08 6391:475.792 - 0.046ms returns 0
TCA08 6391:475.809 JLINK_ReadMemU32(0xE000ED00, 0x1 Items)
TCA08 6391:475.828   CPU_ReadMem(4 bytes @ 0xE000ED00)
TCA08 6391:476.132   Data:  41 C2 0F 41
TCA08 6391:476.159   Debug reg: CPUID
TCA08 6391:476.182 - 0.380ms returns 1 (0x1)
TCA08 6391:476.199 JLINK_GetDebugInfo(0x10F = JLINKARM_DEBUG_INFO_HAS_CORTEX_M_SECURITY_EXT_INDEX)
TCA08 6391:476.215   Value=0x00000000
TCA08 6391:476.238 - 0.046ms returns 0
TCA08 6391:476.256 JLINK_Halt()
TCA08 6391:478.141 - 1.910ms returns 0x00
TCA08 6391:478.180 JLINK_ReadMemU32(0xE000EDF0, 0x1 Items)
TCA08 6391:478.201   CPU_ReadMem(4 bytes @ 0xE000EDF0)
TCA08 6391:478.510   Data:  03 00 03 00
TCA08 6391:478.548   Debug reg: DHCSR
TCA08 6391:478.573 - 0.401ms returns 1 (0x1)
TCA08 6391:478.593 JLINK_WriteU32_64(0xE000EDF0, 0xA05F0003)
TCA08 6391:478.610   Debug reg: DHCSR
TCA08 6391:478.823   CPU_WriteMem(4 bytes @ 0xE000EDF0)
TCA08 6391:479.140 - 0.567ms returns 0 (0x00000000)
TCA08 6391:479.172 JLINK_WriteU32_64(0xE000EDFC, 0x01000000)
TCA08 6391:479.189   Debug reg: DEMCR
TCA08 6391:479.217   CPU_WriteMem(4 bytes @ 0xE000EDFC)
TCA08 6391:479.532 - 0.383ms returns 0 (0x00000000)
TCA08 6391:479.594 JLINK_GetHWStatus(...)
TCA08 6391:479.794 - 0.218ms returns 0
TCA08 6391:479.839 JLINK_GetNumBPUnits(Type = 0xFFFFFF00)
TCA08 6391:479.857 - 0.026ms returns 0x06
TCA08 6391:479.875 JLINK_GetNumBPUnits(Type = 0xF0)
TCA08 6391:479.892 - 0.024ms returns 0x2000
TCA08 6391:479.910 JLINK_GetNumWPUnits()
TCA08 6391:479.926 - 0.024ms returns 4
TCA08 6391:479.952 JLINK_GetSpeed()
TCA08 6391:479.969 - 0.025ms returns 4000
TCA08 6391:479.992 JLINK_ReadMemU32(0xE000E004, 0x1 Items)
TCA08 6391:480.011   CPU_ReadMem(4 bytes @ 0xE000E004)
TCA08 6391:480.326   Data:  04 00 00 00
TCA08 6391:480.362 - 0.379ms returns 1 (0x1)
TCA08 6391:480.381 JLINK_ReadMemU32(0xE000E004, 0x1 Items)
TCA08 6391:480.407   CPU_ReadMem(4 bytes @ 0xE000E004)
TCA08 6391:480.720   Data:  04 00 00 00
TCA08 6391:480.762 - 0.389ms returns 1 (0x1)
TCA08 6391:480.784 JLINK_WriteMemEx(0xE0001000, 0x0000001C Bytes, Flags = 0x02000004)
TCA08 6391:480.802   Data:  01 00 00 00 00 00 00 00 00 00 00 00 00 00 00 00 ...
TCA08 6391:480.831   CPU_WriteMem(28 bytes @ 0xE0001000)
TCA08 6391:481.211 - 0.443ms returns 0x1C
TCA08 6391:481.251 JLINK_HasError()
TCA08 6391:481.272 JLINK_ReadReg(R15 (PC))
TCA08 6391:481.563 - 0.306ms returns 0x1FFF8000
TCA08 6391:481.589 JLINK_ReadReg(XPSR)
TCA08 6391:481.606 - 0.025ms returns 0x61000000
TCA08 6391:483.691 JLINK_ReadMemEx(0xE0001004, 0x4 Bytes, Flags = 0x02000000)
TCA08 6391:483.727   CPU_ReadMem(4 bytes @ 0xE0001004)
TCA08 6391:484.093   Data:  00 00 00 00
TCA08 6391:484.122   Debug reg: DWT_CYCCNT
TCA08 6391:484.146 - 0.463ms returns 4 (0x4)
TCA08 6393:074.970 JLINK_HasError()
TCA08 6393:075.052 JLINK_ReadReg(R0)
TCA08 6393:075.412 - 0.374ms returns 0x00000000
TCA08 6393:075.438 JLINK_ReadReg(R1)
TCA08 6393:075.456 - 0.027ms returns 0x40010400
TCA08 6393:075.476 JLINK_ReadReg(R2)
TCA08 6393:075.493 - 0.025ms returns 0x1FFF856C
TCA08 6393:075.511 JLINK_ReadReg(R3)
TCA08 6393:075.528 - 0.025ms returns 0x00000000
TCA08 6393:075.546 JLINK_ReadReg(R4)
TCA08 6393:075.563 - 0.025ms returns 0x00000000
TCA08 6393:075.580 JLINK_ReadReg(R5)
TCA08 6393:075.597 - 0.025ms returns 0x00000000
TCA08 6393:075.615 JLINK_ReadReg(R6)
TCA08 6393:075.632 - 0.025ms returns 0x00000000
TCA08 6393:075.649 JLINK_ReadReg(R7)
TCA08 6393:075.666 - 0.025ms returns 0x00000000
TCA08 6393:075.684 JLINK_ReadReg(R8)
TCA08 6393:075.700 - 0.025ms returns 0x00000000
TCA08 6393:075.718 JLINK_ReadReg(R9)
TCA08 6393:075.735 - 0.024ms returns 0x1FFF8568
TCA08 6393:075.752 JLINK_ReadReg(R10)
TCA08 6393:075.769 - 0.025ms returns 0x00000000
TCA08 6393:075.787 JLINK_ReadReg(R11)
TCA08 6393:075.804 - 0.025ms returns 0x00000000
TCA08 6393:075.822 JLINK_ReadReg(R12)
TCA08 6393:075.839 - 0.025ms returns 0x00000000
TCA08 6393:075.857 JLINK_ReadReg(R13 (SP))
TCA08 6393:075.875 - 0.026ms returns 0x1FFF9000
TCA08 6393:075.892 JLINK_ReadReg(R14)
TCA08 6393:075.909 - 0.025ms returns 0x1FFF83AD
TCA08 6393:075.927 JLINK_ReadReg(R15 (PC))
TCA08 6393:075.943 - 0.025ms returns 0x1FFF8000
TCA08 6393:075.961 JLINK_ReadReg(XPSR)
TCA08 6393:075.978 - 0.025ms returns 0x61000000
TCA08 6393:075.995 JLINK_ReadReg(MSP)
TCA08 6393:076.012 - 0.024ms returns 0x1FFF9000
TCA08 6393:076.030 JLINK_ReadReg(PSP)
TCA08 6393:076.047 - 0.025ms returns 0x1FFF9000
TCA08 6393:076.064 JLINK_ReadReg(CFBP)
TCA08 6393:076.081 - 0.025ms returns 0x00000000
TCA08 6393:076.099 JLINK_ReadReg(FPSCR)
TCA08 6393:079.120 - 3.068ms returns 0x00000000
TCA08 6393:079.189 JLINK_ReadReg(FPS0)
TCA08 6393:079.219 - 0.042ms returns 0xD93ED23D
TCA08 6393:079.242 JLINK_ReadReg(FPS1)
TCA08 6393:079.259 - 0.026ms returns 0xA7DF33EB
TCA08 6393:079.278 JLINK_ReadReg(FPS2)
TCA08 6393:079.295 - 0.025ms returns 0x006084F7
TCA08 6393:079.313 JLINK_ReadReg(FPS3)
TCA08 6393:079.331 - 0.025ms returns 0x940EE899
TCA08 6393:079.348 JLINK_ReadReg(FPS4)
TCA08 6393:079.365 - 0.025ms returns 0xD6D0B20F
TCA08 6393:079.383 JLINK_ReadReg(FPS5)
TCA08 6393:079.400 - 0.025ms returns 0x545FAB67
TCA08 6393:079.418 JLINK_ReadReg(FPS6)
TCA08 6393:079.435 - 0.028ms returns 0x7C38D098
TCA08 6393:079.459 JLINK_ReadReg(FPS7)
TCA08 6393:079.476 - 0.025ms returns 0x07BEA6A4
TCA08 6393:079.494 JLINK_ReadReg(FPS8)
TCA08 6393:079.511 - 0.025ms returns 0x8B7EE289
TCA08 6393:079.529 JLINK_ReadReg(FPS9)
TCA08 6393:079.546 - 0.025ms returns 0xDDD84C3E
TCA08 6393:079.563 JLINK_ReadReg(FPS10)
TCA08 6393:079.580 - 0.025ms returns 0x7A598C95
TCA08 6393:079.598 JLINK_ReadReg(FPS11)
TCA08 6393:079.615 - 0.025ms returns 0xEB16C194
TCA08 6393:079.633 JLINK_ReadReg(FPS12)
TCA08 6393:079.650 - 0.025ms returns 0x4870BA85
TCA08 6393:079.668 JLINK_ReadReg(FPS13)
TCA08 6393:079.685 - 0.025ms returns 0xF112C1FD
TCA08 6393:079.703 JLINK_ReadReg(FPS14)
TCA08 6393:079.720 - 0.025ms returns 0xC7A07F6D
TCA08 6393:079.737 JLINK_ReadReg(FPS15)
TCA08 6393:079.755 - 0.026ms returns 0x194E1C61
TCA08 6393:079.773 JLINK_ReadReg(FPS16)
TCA08 6393:079.790 - 0.025ms returns 0x7A8CF1D3
TCA08 6393:079.808 JLINK_ReadReg(FPS17)
TCA08 6393:079.826 - 0.027ms returns 0xFBFF560B
TCA08 6393:079.846 JLINK_ReadReg(FPS18)
TCA08 6393:079.865 - 0.027ms returns 0xE520F91B
TCA08 6393:079.884 JLINK_ReadReg(FPS19)
TCA08 6393:079.902 - 0.025ms returns 0x46F692A3
TCA08 6393:079.921 JLINK_ReadReg(FPS20)
TCA08 6393:079.939 - 0.026ms returns 0xD3C9EC29
TCA08 6393:079.958 JLINK_ReadReg(FPS21)
TCA08 6393:079.975 - 0.025ms returns 0xAE854B2C
TCA08 6393:079.993 JLINK_ReadReg(FPS22)
TCA08 6393:080.011 - 0.025ms returns 0xD2BF27D5
TCA08 6393:080.030 JLINK_ReadReg(FPS23)
TCA08 6393:080.047 - 0.026ms returns 0x9FF620C3
TCA08 6393:080.066 JLINK_ReadReg(FPS24)
TCA08 6393:080.083 - 0.025ms returns 0xFF052BD5
TCA08 6393:080.101 JLINK_ReadReg(FPS25)
TCA08 6393:080.119 - 0.026ms returns 0xD339DCEC
TCA08 6393:080.137 JLINK_ReadReg(FPS26)
TCA08 6393:080.155 - 0.026ms returns 0x9F2E9B4F
TCA08 6393:080.174 JLINK_ReadReg(FPS27)
TCA08 6393:080.191 - 0.026ms returns 0x90DF1379
TCA08 6393:080.210 JLINK_ReadReg(FPS28)
TCA08 6393:080.228 - 0.025ms returns 0xCD95216C
TCA08 6393:080.246 JLINK_ReadReg(FPS29)
TCA08 6393:080.263 - 0.025ms returns 0xAAF48D96
TCA08 6393:080.282 JLINK_ReadReg(FPS30)
TCA08 6393:080.299 - 0.025ms returns 0x313264F6
TCA08 6393:080.317 JLINK_ReadReg(FPS31)
TCA08 6393:080.335 - 0.025ms returns 0x465C50EF
TCA08 6393:080.409 JLINK_ReadMemEx(0x00025100, 0x350 Bytes, Flags = 0x02000000)
TCA08 6393:080.458   CPU_ReadMem(896 bytes @ 0x00025100)
TCA08 6393:084.488    -- Updating C cache (896 bytes @ 0x00025100)
TCA08 6393:084.548    -- Read from C cache (848 bytes @ 0x00025100)
TCA08 6393:084.580   Data:  FF FF FF FF FF FF FF FF FF FF FF FF FF FF FF FF ...
TCA08 6393:084.605 - 4.205ms returns 848 (0x350)
TCA08 6393:089.767 JLINK_ReadMemEx(0x00025100, 0x350 Bytes, Flags = 0x02000000)
TCA08 6393:089.838    -- Read from C cache (848 bytes @ 0x00025100)
TCA08 6393:089.866   Data:  FF FF FF FF FF FF FF FF FF FF FF FF FF FF FF FF ...
TCA08 6393:089.891 - 0.131ms returns 848 (0x350)
TCA08 6393:090.361 JLINK_ReadMemEx(0x00025100, 0x350 Bytes, Flags = 0x02000000)
TCA08 6393:090.398    -- Read from C cache (848 bytes @ 0x00025100)
TCA08 6393:090.425   Data:  FF FF FF FF FF FF FF FF FF FF FF FF FF FF FF FF ...
TCA08 6393:090.449 - 0.097ms returns 848 (0x350)
TCA08 6393:588.103 JLINK_ReadMemEx(0x00000000, 0x3C Bytes, Flags = 0x02000000)
TCA08 6393:588.181   CPU_ReadMem(64 bytes @ 0x00000000)
TCA08 6393:588.757    -- Updating C cache (64 bytes @ 0x00000000)
TCA08 6393:588.802    -- Read from C cache (60 bytes @ 0x00000000)
TCA08 6393:588.829   Data:  D8 8F FF 1F 95 02 00 00 C5 2D 00 00 C7 02 00 00 ...
TCA08 6393:588.854 - 0.759ms returns 60 (0x3C)
TCA08 6393:588.875 JLINK_ReadMemEx(0x00000000, 0x2 Bytes, Flags = 0x02000000)
TCA08 6393:588.893    -- Read from C cache (2 bytes @ 0x00000000)
TCA08 6393:588.918   Data:  D8 8F
TCA08 6393:588.944 - 0.077ms returns 2 (0x2)
TCA08 6393:588.963 JLINK_ReadMemEx(0x00000002, 0x2 Bytes, Flags = 0x02000000)
TCA08 6393:588.981    -- Read from C cache (2 bytes @ 0x00000002)
TCA08 6393:589.006   Data:  FF 1F
TCA08 6393:589.030 - 0.075ms returns 2 (0x2)
TCA08 6393:589.116 JLINK_ReadMemEx(0x00000002, 0x2 Bytes, Flags = 0x02000000)
TCA08 6393:589.141    -- Read from C cache (2 bytes @ 0x00000002)
TCA08 6393:589.166   Data:  FF 1F
TCA08 6393:589.192 - 0.086ms returns 2 (0x2)
TCA08 6393:589.218 JLINK_ReadMemEx(0x00000004, 0x3C Bytes, Flags = 0x02000000)
TCA08 6393:589.237    -- Read from C cache (60 bytes @ 0x00000004)
TCA08 6393:589.262   Data:  95 02 00 00 C5 2D 00 00 C7 02 00 00 C1 2D 00 00 ...
TCA08 6393:589.287 - 0.076ms returns 60 (0x3C)
TCA08 6393:589.305 JLINK_ReadMemEx(0x00000004, 0x2 Bytes, Flags = 0x02000000)
TCA08 6393:589.322    -- Read from C cache (2 bytes @ 0x00000004)
TCA08 6393:589.348   Data:  95 02
TCA08 6393:589.372 - 0.075ms returns 2 (0x2)
TCA08 6393:589.393 JLINK_ReadMemEx(0x00000004, 0x3C Bytes, Flags = 0x02000000)
TCA08 6393:589.411    -- Read from C cache (60 bytes @ 0x00000004)
TCA08 6393:589.436   Data:  95 02 00 00 C5 2D 00 00 C7 02 00 00 C1 2D 00 00 ...
TCA08 6393:589.461 - 0.075ms returns 60 (0x3C)
TCA08 6393:589.478 JLINK_ReadMemEx(0x00000004, 0x2 Bytes, Flags = 0x02000000)
TCA08 6393:589.495    -- Read from C cache (2 bytes @ 0x00000004)
TCA08 6393:589.519   Data:  95 02
TCA08 6393:589.544 - 0.073ms returns 2 (0x2)
TCA08 6393:589.562 JLINK_ReadMemEx(0x00000006, 0x2 Bytes, Flags = 0x02000000)
TCA08 6393:589.579    -- Read from C cache (2 bytes @ 0x00000006)
TCA08 6393:589.603   Data:  00 00
TCA08 6393:589.628 - 0.074ms returns 2 (0x2)
TCA08 6393:589.648 JLINK_ReadMemEx(0x00000006, 0x2 Bytes, Flags = 0x02000000)
TCA08 6393:589.666    -- Read from C cache (2 bytes @ 0x00000006)
TCA08 6393:589.690   Data:  00 00
TCA08 6393:589.715 - 0.074ms returns 2 (0x2)
TCA08 6393:589.732 JLINK_ReadMemEx(0x00000008, 0x3C Bytes, Flags = 0x02000000)
TCA08 6393:589.752   CPU_ReadMem(64 bytes @ 0x00000040)
TCA08 6393:590.304    -- Updating C cache (64 bytes @ 0x00000040)
TCA08 6393:590.353    -- Read from C cache (60 bytes @ 0x00000008)
TCA08 6393:590.380   Data:  C5 2D 00 00 C7 02 00 00 C1 2D 00 00 FB 03 00 00 ...
TCA08 6393:590.404 - 0.679ms returns 60 (0x3C)
TCA08 6393:590.423 JLINK_ReadMemEx(0x00000008, 0x2 Bytes, Flags = 0x02000000)
TCA08 6393:590.442    -- Read from C cache (2 bytes @ 0x00000008)
TCA08 6393:590.466   Data:  C5 2D
TCA08 6393:590.491 - 0.075ms returns 2 (0x2)
TCA08 6393:590.513 JLINK_ReadMemEx(0x00000008, 0x3C Bytes, Flags = 0x02000000)
TCA08 6393:590.531    -- Read from C cache (60 bytes @ 0x00000008)
TCA08 6393:590.556   Data:  C5 2D 00 00 C7 02 00 00 C1 2D 00 00 FB 03 00 00 ...
TCA08 6393:590.582 - 0.079ms returns 60 (0x3C)
TCA08 6393:590.603 JLINK_ReadMemEx(0x00000008, 0x2 Bytes, Flags = 0x02000000)
TCA08 6393:590.621    -- Read from C cache (2 bytes @ 0x00000008)
TCA08 6393:590.646   Data:  C5 2D
TCA08 6393:590.670 - 0.075ms returns 2 (0x2)
TCA08 6393:590.688 JLINK_ReadMemEx(0x0000000A, 0x2 Bytes, Flags = 0x02000000)
TCA08 6393:590.705    -- Read from C cache (2 bytes @ 0x0000000A)
TCA08 6393:590.730   Data:  00 00
TCA08 6393:590.754 - 0.074ms returns 2 (0x2)
TCA08 6393:590.774 JLINK_ReadMemEx(0x0000000A, 0x2 Bytes, Flags = 0x02000000)
TCA08 6393:590.791    -- Read from C cache (2 bytes @ 0x0000000A)
TCA08 6393:590.816   Data:  00 00
TCA08 6393:590.842 - 0.076ms returns 2 (0x2)
TCA08 6393:590.859 JLINK_ReadMemEx(0x0000000C, 0x3C Bytes, Flags = 0x02000000)
TCA08 6393:590.877    -- Read from C cache (60 bytes @ 0x0000000C)
TCA08 6393:590.902   Data:  C7 02 00 00 C1 2D 00 00 FB 03 00 00 41 43 00 00 ...
TCA08 6393:590.927 - 0.075ms returns 60 (0x3C)
TCA08 6393:590.945 JLINK_ReadMemEx(0x0000000C, 0x2 Bytes, Flags = 0x02000000)
TCA08 6393:590.962    -- Read from C cache (2 bytes @ 0x0000000C)
TCA08 6393:590.987   Data:  C7 02
TCA08 6393:591.011 - 0.074ms returns 2 (0x2)
TCA08 6393:591.031 JLINK_ReadMemEx(0x0000000C, 0x3C Bytes, Flags = 0x02000000)
TCA08 6393:591.049    -- Read from C cache (60 bytes @ 0x0000000C)
TCA08 6393:591.074   Data:  C7 02 00 00 C1 2D 00 00 FB 03 00 00 41 43 00 00 ...
TCA08 6393:591.099 - 0.076ms returns 60 (0x3C)
TCA08 6393:591.116 JLINK_ReadMemEx(0x0000000C, 0x2 Bytes, Flags = 0x02000000)
TCA08 6393:591.138    -- Read from C cache (2 bytes @ 0x0000000C)
TCA08 6393:591.164   Data:  C7 02
TCA08 6393:591.189 - 0.080ms returns 2 (0x2)
TCA08 6393:591.207 JLINK_ReadMemEx(0x0000000E, 0x2 Bytes, Flags = 0x02000000)
TCA08 6393:591.225    -- Read from C cache (2 bytes @ 0x0000000E)
TCA08 6393:591.249   Data:  00 00
TCA08 6393:591.274 - 0.075ms returns 2 (0x2)
TCA08 6394:886.564 JLINK_ReadMemEx(0x00025100, 0x350 Bytes, Flags = 0x02000000)
TCA08 6394:886.617    -- Read from C cache (848 bytes @ 0x00025100)
TCA08 6394:886.643   Data:  FF FF FF FF FF FF FF FF FF FF FF FF FF FF FF FF ...
TCA08 6394:886.666 - 0.109ms returns 848 (0x350)
TCA08 6394:889.086 JLINK_ReadMemEx(0x1FFF8000, 0x3C Bytes, Flags = 0x02000000)
TCA08 6394:889.124   CPU_ReadMem(60 bytes @ 0x1FFF8000)
TCA08 6394:889.847   Data:  FE E7 0A E0 0D 78 2D 06 68 40 08 24 40 00 00 D3 ...
TCA08 6394:889.881 - 0.802ms returns 60 (0x3C)
TCA08 6394:889.898 JLINK_ReadMemEx(0x1FFF8000, 0x2 Bytes, Flags = 0x02000000)
TCA08 6394:889.917   CPU_ReadMem(2 bytes @ 0x1FFF8000)
TCA08 6394:890.285   Data:  FE E7
TCA08 6394:890.311 - 0.427ms returns 2 (0x2)
TCA08 6394:890.373 JLINK_ReadMemEx(0x1FFF8002, 0x2 Bytes, Flags = 0x02000000)
TCA08 6394:890.391   CPU_ReadMem(2 bytes @ 0x1FFF8002)
TCA08 6394:890.742   Data:  0A E0
TCA08 6394:890.774 - 0.408ms returns 2 (0x2)
TCA08 6394:890.889 JLINK_ReadMemEx(0x1FFF8002, 0x2 Bytes, Flags = 0x02000000)
TCA08 6394:890.911   CPU_ReadMem(2 bytes @ 0x1FFF8002)
TCA08 6394:891.300   Data:  0A E0
TCA08 6394:891.325 - 0.450ms returns 2 (0x2)
TCA08 6394:891.349 JLINK_ReadMemEx(0x1FFF8004, 0x3C Bytes, Flags = 0x02000000)
TCA08 6394:891.366   CPU_ReadMem(60 bytes @ 0x1FFF8004)
TCA08 6394:891.974   Data:  0D 78 2D 06 68 40 08 24 40 00 00 D3 58 40 64 1E ...
TCA08 6394:892.014 - 0.673ms returns 60 (0x3C)
TCA08 6394:892.030 JLINK_ReadMemEx(0x1FFF8004, 0x2 Bytes, Flags = 0x02000000)
TCA08 6394:892.047   CPU_ReadMem(2 bytes @ 0x1FFF8004)
TCA08 6394:892.397   Data:  0D 78
TCA08 6394:892.454 - 0.431ms returns 2 (0x2)
TCA08 6394:892.480 JLINK_ReadMemEx(0x1FFF8004, 0x3C Bytes, Flags = 0x02000000)
TCA08 6394:892.500   CPU_ReadMem(60 bytes @ 0x1FFF8004)
TCA08 6394:893.130   Data:  0D 78 2D 06 68 40 08 24 40 00 00 D3 58 40 64 1E ...
TCA08 6394:893.165 - 0.693ms returns 60 (0x3C)
TCA08 6394:893.184 JLINK_ReadMemEx(0x1FFF8004, 0x2 Bytes, Flags = 0x02000000)
TCA08 6394:893.202   CPU_ReadMem(2 bytes @ 0x1FFF8004)
TCA08 6394:893.486   Data:  0D 78
TCA08 6394:893.511 - 0.335ms returns 2 (0x2)
TCA08 6394:893.529 JLINK_ReadMemEx(0x1FFF8006, 0x2 Bytes, Flags = 0x02000000)
TCA08 6394:893.546   CPU_ReadMem(2 bytes @ 0x1FFF8006)
TCA08 6394:893.841   Data:  2D 06
TCA08 6394:893.866 - 0.344ms returns 2 (0x2)
TCA08 6394:893.889 JLINK_ReadMemEx(0x1FFF8006, 0x2 Bytes, Flags = 0x02000000)
TCA08 6394:893.906   CPU_ReadMem(2 bytes @ 0x1FFF8006)
TCA08 6394:894.314   Data:  2D 06
TCA08 6394:894.365 - 0.485ms returns 2 (0x2)
TCA08 6394:894.385 JLINK_ReadMemEx(0x1FFF8008, 0x3C Bytes, Flags = 0x02000000)
TCA08 6394:894.406   CPU_ReadMem(60 bytes @ 0x1FFF8008)
TCA08 6394:894.988   Data:  68 40 08 24 40 00 00 D3 58 40 64 1E FA D1 49 1C ...
TCA08 6394:895.048 - 0.673ms returns 60 (0x3C)
TCA08 6394:895.068 JLINK_ReadMemEx(0x1FFF8008, 0x2 Bytes, Flags = 0x02000000)
TCA08 6394:895.093   CPU_ReadMem(2 bytes @ 0x1FFF8008)
TCA08 6394:895.424   Data:  68 40
TCA08 6394:895.461 - 0.400ms returns 2 (0x2)
TCA08 6394:895.492 JLINK_ReadMemEx(0x1FFF8008, 0x3C Bytes, Flags = 0x02000000)
TCA08 6394:895.519   CPU_ReadMem(60 bytes @ 0x1FFF8008)
TCA08 6394:896.090   Data:  68 40 08 24 40 00 00 D3 58 40 64 1E FA D1 49 1C ...
TCA08 6394:896.134 - 0.651ms returns 60 (0x3C)
TCA08 6394:896.157 JLINK_ReadMemEx(0x1FFF8008, 0x2 Bytes, Flags = 0x02000000)
TCA08 6394:896.178   CPU_ReadMem(2 bytes @ 0x1FFF8008)
TCA08 6394:896.489   Data:  68 40
TCA08 6394:896.526 - 0.377ms returns 2 (0x2)
TCA08 6394:896.546 JLINK_ReadMemEx(0x1FFF800A, 0x2 Bytes, Flags = 0x02000000)
TCA08 6394:896.566   CPU_ReadMem(2 bytes @ 0x1FFF800A)
TCA08 6394:896.862   Data:  08 24
TCA08 6394:896.906 - 0.369ms returns 2 (0x2)
TCA08 6394:899.324 JLINK_ReadMemEx(0x00025100, 0x350 Bytes, Flags = 0x02000000)
TCA08 6394:899.377    -- Read from C cache (848 bytes @ 0x00025100)
TCA08 6394:899.406   Data:  FF FF FF FF FF FF FF FF FF FF FF FF FF FF FF FF ...
TCA08 6394:899.432 - 0.117ms returns 848 (0x350)
TCA08 6394:903.616 JLINK_ReadMemEx(0x00025100, 0x350 Bytes, Flags = 0x02000000)
TCA08 6394:903.675    -- Read from C cache (848 bytes @ 0x00025100)
TCA08 6394:903.706   Data:  FF FF FF FF FF FF FF FF FF FF FF FF FF FF FF FF ...
TCA08 6394:903.731 - 0.124ms returns 848 (0x350)
TCA08 6396:242.292 JLINK_HasError()
TCA08 6396:242.361 JLINK_SetResetType(JLINKARM_CM3_RESET_TYPE_NORMAL)
TCA08 6396:242.379 - 0.027ms returns JLINKARM_CM3_RESET_TYPE_NORMAL
TCA08 6396:242.399 JLINK_Reset()
TCA08 6396:242.429   CPU_WriteMem(4 bytes @ 0xE000EDF0)
TCA08 6396:242.755   CPU_WriteMem(4 bytes @ 0xE000EDFC)
TCA08 6396:243.107   Reset: Halt core after reset via DEMCR.VC_CORERESET.
TCA08 6396:243.466   Reset: Reset device via AIRCR.SYSRESETREQ.
TCA08 6396:243.496   CPU_WriteMem(4 bytes @ 0xE000ED0C)
TCA08 6396:296.533   CPU_ReadMem(4 bytes @ 0xE000EDF0)
TCA08 6396:296.949   CPU_ReadMem(4 bytes @ 0xE000EDF0)
TCA08 6396:297.327   CPU_WriteMem(4 bytes @ 0xE000EDF0)
TCA08 6396:297.684   CPU_WriteMem(4 bytes @ 0xE000EDFC)
TCA08 6396:303.181   CPU_ReadMem(4 bytes @ 0xE000EDF0)
TCA08 6396:305.662   CPU_WriteMem(4 bytes @ 0xE0002000)
TCA08 6396:306.053   CPU_ReadMem(4 bytes @ 0xE000EDFC)
TCA08 6396:306.448   CPU_ReadMem(4 bytes @ 0xE0001000)
TCA08 6396:306.840 - 64.455ms
TCA08 6396:306.928 JLINK_HasError()
TCA08 6396:306.951 JLINK_ReadReg(R15 (PC))
TCA08 6396:306.970 - 0.027ms returns 0x00000294
TCA08 6396:306.987 JLINK_ReadReg(XPSR)
TCA08 6396:307.004 - 0.024ms returns 0x01000000
TCA08 6396:307.108 JLINK_HasError()
TCA08 6396:307.127 JLINK_ReadReg(R0)
TCA08 6396:307.143 - 0.024ms returns 0x00000000
TCA08 6396:307.160 JLINK_ReadReg(R1)
TCA08 6396:307.176 - 0.024ms returns 0x40010400
TCA08 6396:307.193 JLINK_ReadReg(R2)
TCA08 6396:307.209 - 0.023ms returns 0x1FFF856C
TCA08 6396:307.226 JLINK_ReadReg(R3)
TCA08 6396:307.241 - 0.023ms returns 0x00000000
TCA08 6396:307.258 JLINK_ReadReg(R4)
TCA08 6396:307.274 - 0.023ms returns 0x00000000
TCA08 6396:307.290 JLINK_ReadReg(R5)
TCA08 6396:307.306 - 0.024ms returns 0x00000000
TCA08 6396:307.323 JLINK_ReadReg(R6)
TCA08 6396:307.339 - 0.023ms returns 0x00000000
TCA08 6396:307.355 JLINK_ReadReg(R7)
TCA08 6396:307.371 - 0.023ms returns 0x00000000
TCA08 6396:307.388 JLINK_ReadReg(R8)
TCA08 6396:307.404 - 0.023ms returns 0x00000000
TCA08 6396:307.420 JLINK_ReadReg(R9)
TCA08 6396:307.436 - 0.023ms returns 0x1FFF8568
TCA08 6396:307.452 JLINK_ReadReg(R10)
TCA08 6396:307.468 - 0.024ms returns 0x00000000
TCA08 6396:307.485 JLINK_ReadReg(R11)
TCA08 6396:307.501 - 0.023ms returns 0x00000000
TCA08 6396:307.517 JLINK_ReadReg(R12)
TCA08 6396:307.533 - 0.023ms returns 0x00000000
TCA08 6396:307.550 JLINK_ReadReg(R13 (SP))
TCA08 6396:307.566 - 0.023ms returns 0x1FFF8FD8
TCA08 6396:307.582 JLINK_ReadReg(R14)
TCA08 6396:307.599 - 0.024ms returns 0xFFFFFFFF
TCA08 6396:307.615 JLINK_ReadReg(R15 (PC))
TCA08 6396:307.631 - 0.023ms returns 0x00000294
TCA08 6396:307.647 JLINK_ReadReg(XPSR)
TCA08 6396:307.663 - 0.027ms returns 0x01000000
TCA08 6396:307.685 JLINK_ReadReg(MSP)
TCA08 6396:307.704 - 0.029ms returns 0x1FFF8FD8
TCA08 6396:307.727 JLINK_ReadReg(PSP)
TCA08 6396:307.752 - 0.036ms returns 0x1FFF9000
TCA08 6396:307.777 JLINK_ReadReg(CFBP)
TCA08 6396:307.800 - 0.034ms returns 0x00000000
TCA08 6396:307.822 JLINK_ReadReg(FPSCR)
TCA08 6396:310.699 - 2.905ms returns 0x00000000
TCA08 6396:310.740 JLINK_ReadReg(FPS0)
TCA08 6396:310.759 - 0.027ms returns 0xD93ED23D
TCA08 6396:310.777 JLINK_ReadReg(FPS1)
TCA08 6396:310.794 - 0.025ms returns 0xA7DF33EB
TCA08 6396:310.812 JLINK_ReadReg(FPS2)
TCA08 6396:310.828 - 0.024ms returns 0x006084F7
TCA08 6396:310.846 JLINK_ReadReg(FPS3)
TCA08 6396:310.863 - 0.029ms returns 0x940EE899
TCA08 6396:310.887 JLINK_ReadReg(FPS4)
TCA08 6396:310.904 - 0.025ms returns 0xD6D0B20F
TCA08 6396:310.922 JLINK_ReadReg(FPS5)
TCA08 6396:310.939 - 0.025ms returns 0x545FAB67
TCA08 6396:310.956 JLINK_ReadReg(FPS6)
TCA08 6396:310.973 - 0.025ms returns 0x7C38D098
TCA08 6396:310.991 JLINK_ReadReg(FPS7)
TCA08 6396:311.008 - 0.024ms returns 0x07BEA6A4
TCA08 6396:311.025 JLINK_ReadReg(FPS8)
TCA08 6396:311.042 - 0.025ms returns 0x8B7EE289
TCA08 6396:311.059 JLINK_ReadReg(FPS9)
TCA08 6396:311.076 - 0.025ms returns 0xDDD84C3E
TCA08 6396:311.093 JLINK_ReadReg(FPS10)
TCA08 6396:311.111 - 0.025ms returns 0x7A598C95
TCA08 6396:311.128 JLINK_ReadReg(FPS11)
TCA08 6396:311.145 - 0.025ms returns 0xEB16C194
TCA08 6396:311.162 JLINK_ReadReg(FPS12)
TCA08 6396:311.180 - 0.026ms returns 0x4870BA85
TCA08 6396:311.197 JLINK_ReadReg(FPS13)
TCA08 6396:311.215 - 0.025ms returns 0xF112C1FD
TCA08 6396:311.234 JLINK_ReadReg(FPS14)
TCA08 6396:311.256 - 0.030ms returns 0xC7A07F6D
TCA08 6396:311.274 JLINK_ReadReg(FPS15)
TCA08 6396:311.292 - 0.025ms returns 0x194E1C61
TCA08 6396:311.309 JLINK_ReadReg(FPS16)
TCA08 6396:311.326 - 0.025ms returns 0x7A8CF1D3
TCA08 6396:311.343 JLINK_ReadReg(FPS17)
TCA08 6396:311.360 - 0.024ms returns 0xFBFF560B
TCA08 6396:311.378 JLINK_ReadReg(FPS18)
TCA08 6396:311.395 - 0.025ms returns 0xE520F91B
TCA08 6396:311.413 JLINK_ReadReg(FPS19)
TCA08 6396:311.430 - 0.025ms returns 0x46F692A3
TCA08 6396:311.447 JLINK_ReadReg(FPS20)
TCA08 6396:311.464 - 0.025ms returns 0xD3C9EC29
TCA08 6396:311.482 JLINK_ReadReg(FPS21)
TCA08 6396:311.499 - 0.025ms returns 0xAE854B2C
TCA08 6396:311.517 JLINK_ReadReg(FPS22)
TCA08 6396:311.534 - 0.025ms returns 0xD2BF27D5
TCA08 6396:311.552 JLINK_ReadReg(FPS23)
TCA08 6396:311.569 - 0.025ms returns 0x9FF620C3
TCA08 6396:311.586 JLINK_ReadReg(FPS24)
TCA08 6396:311.603 - 0.025ms returns 0xFF052BD5
TCA08 6396:311.620 JLINK_ReadReg(FPS25)
TCA08 6396:311.637 - 0.026ms returns 0xD339DCEC
TCA08 6396:311.655 JLINK_ReadReg(FPS26)
TCA08 6396:311.672 - 0.025ms returns 0x9F2E9B4F
TCA08 6396:311.690 JLINK_ReadReg(FPS27)
TCA08 6396:311.707 - 0.025ms returns 0x90DF1379
TCA08 6396:311.725 JLINK_ReadReg(FPS28)
TCA08 6396:311.741 - 0.024ms returns 0xCD95216C
TCA08 6396:311.759 JLINK_ReadReg(FPS29)
TCA08 6396:311.776 - 0.025ms returns 0xAAF48D96
TCA08 6396:311.793 JLINK_ReadReg(FPS30)
TCA08 6396:311.810 - 0.025ms returns 0x313264F6
TCA08 6396:311.828 JLINK_ReadReg(FPS31)
TCA08 6396:311.845 - 0.025ms returns 0x465C50EF
TCA08 6396:311.899 JLINK_ReadMemEx(0x00025100, 0x350 Bytes, Flags = 0x02000000)
TCA08 6396:311.929   CPU_ReadMem(896 bytes @ 0x00025100)
TCA08 6396:315.969    -- Updating C cache (896 bytes @ 0x00025100)
TCA08 6396:316.058    -- Read from C cache (848 bytes @ 0x00025100)
TCA08 6396:316.086   Data:  FF FF FF FF FF FF FF FF FF FF FF FF FF FF FF FF ...
TCA08 6396:316.110 - 4.219ms returns 848 (0x350)
TCA08 6396:670.359 JLINK_ReadMemEx(0x00000294, 0x3C Bytes, Flags = 0x02000000)
TCA08 6396:670.429   CPU_ReadMem(128 bytes @ 0x00000280)
TCA08 6396:671.348    -- Updating C cache (128 bytes @ 0x00000280)
TCA08 6396:671.395    -- Read from C cache (60 bytes @ 0x00000294)
TCA08 6396:671.420   Data:  10 48 4F F0 77 01 01 60 0F 48 4F F0 77 01 01 60 ...
TCA08 6396:671.443 - 1.092ms returns 60 (0x3C)
TCA08 6396:671.462 JLINK_ReadMemEx(0x00000294, 0x2 Bytes, Flags = 0x02000000)
TCA08 6396:671.480    -- Read from C cache (2 bytes @ 0x00000294)
TCA08 6396:671.505   Data:  10 48
TCA08 6396:671.528 - 0.073ms returns 2 (0x2)
TCA08 6396:671.546 JLINK_ReadMemEx(0x00000296, 0x2 Bytes, Flags = 0x02000000)
TCA08 6396:671.562    -- Read from C cache (2 bytes @ 0x00000296)
TCA08 6396:671.586   Data:  4F F0
TCA08 6396:671.609 - 0.071ms returns 2 (0x2)
TCA08 6396:671.633 JLINK_ReadMemEx(0x00000296, 0x2 Bytes, Flags = 0x02000000)
TCA08 6396:671.650    -- Read from C cache (2 bytes @ 0x00000296)
TCA08 6396:671.674   Data:  4F F0
TCA08 6396:671.698 - 0.072ms returns 2 (0x2)
TCA08 6396:671.714 JLINK_ReadMemEx(0x00000298, 0x3C Bytes, Flags = 0x02000000)
TCA08 6396:671.779    -- Read from C cache (60 bytes @ 0x00000298)
TCA08 6396:671.809   Data:  77 01 01 60 0F 48 4F F0 77 01 01 60 0E 48 4F F4 ...
TCA08 6396:671.832 - 0.126ms returns 60 (0x3C)
TCA08 6396:671.850 JLINK_ReadMemEx(0x00000298, 0x2 Bytes, Flags = 0x02000000)
TCA08 6396:671.866    -- Read from C cache (2 bytes @ 0x00000298)
TCA08 6396:671.889   Data:  77 01
TCA08 6396:671.912 - 0.070ms returns 2 (0x2)
TCA08 6396:994.295 JLINK_HasError()
TCA08 6396:994.360 JLINK_SetResetType(JLINKARM_CM3_RESET_TYPE_NORMAL)
TCA08 6396:994.377 - 0.025ms returns JLINKARM_CM3_RESET_TYPE_NORMAL
TCA08 6396:994.395 JLINK_Reset()
TCA08 6396:994.422   CPU_WriteMem(4 bytes @ 0xE000EDF0)
TCA08 6396:994.805   CPU_WriteMem(4 bytes @ 0xE000EDFC)
TCA08 6396:995.189   Reset: Halt core after reset via DEMCR.VC_CORERESET.
TCA08 6396:995.642   Reset: Reset device via AIRCR.SYSRESETREQ.
TCA08 6396:995.678   CPU_WriteMem(4 bytes @ 0xE000ED0C)
TCA08 6397:048.702   CPU_ReadMem(4 bytes @ 0xE000EDF0)
TCA08 6397:049.142   CPU_ReadMem(4 bytes @ 0xE000EDF0)
TCA08 6397:049.538   CPU_WriteMem(4 bytes @ 0xE000EDF0)
TCA08 6397:049.831   CPU_WriteMem(4 bytes @ 0xE000EDFC)
TCA08 6397:055.299   CPU_ReadMem(4 bytes @ 0xE000EDF0)
TCA08 6397:057.798   CPU_WriteMem(4 bytes @ 0xE0002000)
TCA08 6397:058.172   CPU_ReadMem(4 bytes @ 0xE000EDFC)
TCA08 6397:058.574   CPU_ReadMem(4 bytes @ 0xE0001000)
TCA08 6397:058.973 - 64.590ms
TCA08 6397:059.061 JLINK_HasError()
TCA08 6397:059.083 JLINK_ReadReg(R15 (PC))
TCA08 6397:059.100 - 0.025ms returns 0x00000294
TCA08 6397:059.117 JLINK_ReadReg(XPSR)
TCA08 6397:059.134 - 0.024ms returns 0x01000000
TCA08 6397:059.237 JLINK_HasError()
TCA08 6397:059.256 JLINK_ReadReg(R0)
TCA08 6397:059.272 - 0.024ms returns 0x00000000
TCA08 6397:059.289 JLINK_ReadReg(R1)
TCA08 6397:059.305 - 0.023ms returns 0x40010400
TCA08 6397:059.321 JLINK_ReadReg(R2)
TCA08 6397:059.337 - 0.023ms returns 0x1FFF856C
TCA08 6397:059.354 JLINK_ReadReg(R3)
TCA08 6397:059.369 - 0.023ms returns 0x00000000
TCA08 6397:059.386 JLINK_ReadReg(R4)
TCA08 6397:059.402 - 0.023ms returns 0x00000000
TCA08 6397:059.418 JLINK_ReadReg(R5)
TCA08 6397:059.434 - 0.023ms returns 0x00000000
TCA08 6397:059.451 JLINK_ReadReg(R6)
TCA08 6397:059.467 - 0.023ms returns 0x00000000
TCA08 6397:059.483 JLINK_ReadReg(R7)
TCA08 6397:059.499 - 0.023ms returns 0x00000000
TCA08 6397:059.515 JLINK_ReadReg(R8)
TCA08 6397:059.531 - 0.023ms returns 0x00000000
TCA08 6397:059.547 JLINK_ReadReg(R9)
TCA08 6397:059.564 - 0.024ms returns 0x1FFF8568
TCA08 6397:059.580 JLINK_ReadReg(R10)
TCA08 6397:059.596 - 0.023ms returns 0x00000000
TCA08 6397:059.613 JLINK_ReadReg(R11)
TCA08 6397:059.628 - 0.023ms returns 0x00000000
TCA08 6397:059.645 JLINK_ReadReg(R12)
TCA08 6397:059.661 - 0.023ms returns 0x00000000
TCA08 6397:059.677 JLINK_ReadReg(R13 (SP))
TCA08 6397:059.693 - 0.023ms returns 0x1FFF8FD8
TCA08 6397:059.710 JLINK_ReadReg(R14)
TCA08 6397:059.726 - 0.023ms returns 0xFFFFFFFF
TCA08 6397:059.742 JLINK_ReadReg(R15 (PC))
TCA08 6397:059.758 - 0.024ms returns 0x00000294
TCA08 6397:059.775 JLINK_ReadReg(XPSR)
TCA08 6397:059.792 - 0.024ms returns 0x01000000
TCA08 6397:059.809 JLINK_ReadReg(MSP)
TCA08 6397:059.825 - 0.023ms returns 0x1FFF8FD8
TCA08 6397:059.841 JLINK_ReadReg(PSP)
TCA08 6397:059.857 - 0.024ms returns 0x1FFF9000
TCA08 6397:059.874 JLINK_ReadReg(CFBP)
TCA08 6397:059.891 - 0.024ms returns 0x00000000
TCA08 6397:059.908 JLINK_ReadReg(FPSCR)
TCA08 6397:062.835 - 2.952ms returns 0x00000000
TCA08 6397:062.877 JLINK_ReadReg(FPS0)
TCA08 6397:062.897 - 0.033ms returns 0xD93ED23D
TCA08 6397:062.917 JLINK_ReadReg(FPS1)
TCA08 6397:062.942 - 0.033ms returns 0xA7DF33EB
TCA08 6397:062.959 JLINK_ReadReg(FPS2)
TCA08 6397:062.975 - 0.024ms returns 0x006084F7
TCA08 6397:062.992 JLINK_ReadReg(FPS3)
TCA08 6397:063.009 - 0.025ms returns 0x940EE899
TCA08 6397:063.026 JLINK_ReadReg(FPS4)
TCA08 6397:063.043 - 0.024ms returns 0xD6D0B20F
TCA08 6397:063.060 JLINK_ReadReg(FPS5)
TCA08 6397:063.076 - 0.024ms returns 0x545FAB67
TCA08 6397:063.109 JLINK_ReadReg(FPS6)
TCA08 6397:063.130 - 0.028ms returns 0x7C38D098
TCA08 6397:063.148 JLINK_ReadReg(FPS7)
TCA08 6397:063.164 - 0.025ms returns 0x07BEA6A4
TCA08 6397:063.182 JLINK_ReadReg(FPS8)
TCA08 6397:063.199 - 0.025ms returns 0x8B7EE289
TCA08 6397:063.217 JLINK_ReadReg(FPS9)
TCA08 6397:063.234 - 0.025ms returns 0xDDD84C3E
TCA08 6397:063.251 JLINK_ReadReg(FPS10)
TCA08 6397:063.268 - 0.025ms returns 0x7A598C95
TCA08 6397:063.286 JLINK_ReadReg(FPS11)
TCA08 6397:063.303 - 0.025ms returns 0xEB16C194
TCA08 6397:063.320 JLINK_ReadReg(FPS12)
TCA08 6397:063.337 - 0.025ms returns 0x4870BA85
TCA08 6397:063.355 JLINK_ReadReg(FPS13)
TCA08 6397:063.372 - 0.025ms returns 0xF112C1FD
TCA08 6397:063.390 JLINK_ReadReg(FPS14)
TCA08 6397:063.407 - 0.025ms returns 0xC7A07F6D
TCA08 6397:063.424 JLINK_ReadReg(FPS15)
TCA08 6397:063.441 - 0.025ms returns 0x194E1C61
TCA08 6397:063.458 JLINK_ReadReg(FPS16)
TCA08 6397:063.475 - 0.025ms returns 0x7A8CF1D3
TCA08 6397:063.493 JLINK_ReadReg(FPS17)
TCA08 6397:063.509 - 0.025ms returns 0xFBFF560B
TCA08 6397:063.527 JLINK_ReadReg(FPS18)
TCA08 6397:063.544 - 0.025ms returns 0xE520F91B
TCA08 6397:063.561 JLINK_ReadReg(FPS19)
TCA08 6397:063.578 - 0.025ms returns 0x46F692A3
TCA08 6397:063.596 JLINK_ReadReg(FPS20)
TCA08 6397:063.612 - 0.025ms returns 0xD3C9EC29
TCA08 6397:063.630 JLINK_ReadReg(FPS21)
TCA08 6397:063.647 - 0.024ms returns 0xAE854B2C
TCA08 6397:063.664 JLINK_ReadReg(FPS22)
TCA08 6397:063.681 - 0.025ms returns 0xD2BF27D5
TCA08 6397:063.699 JLINK_ReadReg(FPS23)
TCA08 6397:063.715 - 0.025ms returns 0x9FF620C3
TCA08 6397:063.733 JLINK_ReadReg(FPS24)
TCA08 6397:063.750 - 0.025ms returns 0xFF052BD5
TCA08 6397:063.768 JLINK_ReadReg(FPS25)
TCA08 6397:063.784 - 0.024ms returns 0xD339DCEC
TCA08 6397:063.802 JLINK_ReadReg(FPS26)
TCA08 6397:063.819 - 0.025ms returns 0x9F2E9B4F
TCA08 6397:063.837 JLINK_ReadReg(FPS27)
TCA08 6397:063.855 - 0.026ms returns 0x90DF1379
TCA08 6397:063.872 JLINK_ReadReg(FPS28)
TCA08 6397:063.890 - 0.025ms returns 0xCD95216C
TCA08 6397:063.907 JLINK_ReadReg(FPS29)
TCA08 6397:063.924 - 0.025ms returns 0xAAF48D96
TCA08 6397:063.941 JLINK_ReadReg(FPS30)
TCA08 6397:063.958 - 0.025ms returns 0x313264F6
TCA08 6397:063.976 JLINK_ReadReg(FPS31)
TCA08 6397:063.993 - 0.025ms returns 0x465C50EF
TCA08 6397:064.041 JLINK_ReadMemEx(0x00025100, 0x350 Bytes, Flags = 0x02000000)
TCA08 6397:064.065   CPU_ReadMem(896 bytes @ 0x00025100)
TCA08 6397:068.019    -- Updating C cache (896 bytes @ 0x00025100)
TCA08 6397:068.112    -- Read from C cache (848 bytes @ 0x00025100)
TCA08 6397:068.140   Data:  FF FF FF FF FF FF FF FF FF FF FF FF FF FF FF FF ...
TCA08 6397:068.165 - 4.132ms returns 848 (0x350)
TCA08 6397:228.216 JLINK_HasError()
TCA08 6397:228.285 JLINK_SetResetType(JLINKARM_CM3_RESET_TYPE_NORMAL)
TCA08 6397:228.304 - 0.026ms returns JLINKARM_CM3_RESET_TYPE_NORMAL
TCA08 6397:228.322 JLINK_Reset()
TCA08 6397:228.351   CPU_WriteMem(4 bytes @ 0xE000EDF0)
TCA08 6397:228.714   CPU_WriteMem(4 bytes @ 0xE000EDFC)
TCA08 6397:229.109   Reset: Halt core after reset via DEMCR.VC_CORERESET.
TCA08 6397:229.554   Reset: Reset device via AIRCR.SYSRESETREQ.
TCA08 6397:229.598   CPU_WriteMem(4 bytes @ 0xE000ED0C)
TCA08 6397:282.510   CPU_ReadMem(4 bytes @ 0xE000EDF0)
TCA08 6397:282.767   CPU_ReadMem(4 bytes @ 0xE000EDF0)
TCA08 6397:283.068   CPU_WriteMem(4 bytes @ 0xE000EDF0)
TCA08 6397:283.307   CPU_WriteMem(4 bytes @ 0xE000EDFC)
TCA08 6397:288.581   CPU_ReadMem(4 bytes @ 0xE000EDF0)
TCA08 6397:290.772   CPU_WriteMem(4 bytes @ 0xE0002000)
TCA08 6397:291.063   CPU_ReadMem(4 bytes @ 0xE000EDFC)
TCA08 6397:291.287   CPU_ReadMem(4 bytes @ 0xE0001000)
TCA08 6397:291.511 - 63.200ms
TCA08 6397:291.607 JLINK_HasError()
TCA08 6397:291.630 JLINK_ReadReg(R15 (PC))
TCA08 6397:291.648 - 0.025ms returns 0x00000294
TCA08 6397:291.665 JLINK_ReadReg(XPSR)
TCA08 6397:291.681 - 0.023ms returns 0x01000000
TCA08 6397:291.788 JLINK_HasError()
TCA08 6397:291.806 JLINK_ReadReg(R0)
TCA08 6397:291.823 - 0.024ms returns 0x00000000
TCA08 6397:291.844 JLINK_ReadReg(R1)
TCA08 6397:291.862 - 0.026ms returns 0x40010400
TCA08 6397:291.879 JLINK_ReadReg(R2)
TCA08 6397:291.895 - 0.023ms returns 0x1FFF856C
TCA08 6397:291.911 JLINK_ReadReg(R3)
TCA08 6397:291.927 - 0.023ms returns 0x00000000
TCA08 6397:291.943 JLINK_ReadReg(R4)
TCA08 6397:291.960 - 0.024ms returns 0x00000000
TCA08 6397:291.977 JLINK_ReadReg(R5)
TCA08 6397:291.998 - 0.028ms returns 0x00000000
TCA08 6397:292.014 JLINK_ReadReg(R6)
TCA08 6397:292.029 - 0.023ms returns 0x00000000
TCA08 6397:292.048 JLINK_ReadReg(R7)
TCA08 6397:292.067 - 0.026ms returns 0x00000000
TCA08 6397:292.083 JLINK_ReadReg(R8)
TCA08 6397:292.099 - 0.023ms returns 0x00000000
TCA08 6397:292.115 JLINK_ReadReg(R9)
TCA08 6397:292.130 - 0.023ms returns 0x1FFF8568
TCA08 6397:292.147 JLINK_ReadReg(R10)
TCA08 6397:292.162 - 0.023ms returns 0x00000000
TCA08 6397:292.178 JLINK_ReadReg(R11)
TCA08 6397:292.194 - 0.023ms returns 0x00000000
TCA08 6397:292.210 JLINK_ReadReg(R12)
TCA08 6397:292.225 - 0.023ms returns 0x00000000
TCA08 6397:292.241 JLINK_ReadReg(R13 (SP))
TCA08 6397:292.257 - 0.023ms returns 0x1FFF8FD8
TCA08 6397:292.273 JLINK_ReadReg(R14)
TCA08 6397:292.289 - 0.023ms returns 0xFFFFFFFF
TCA08 6397:292.305 JLINK_ReadReg(R15 (PC))
TCA08 6397:292.321 - 0.023ms returns 0x00000294
TCA08 6397:292.337 JLINK_ReadReg(XPSR)
TCA08 6397:292.352 - 0.023ms returns 0x01000000
TCA08 6397:292.369 JLINK_ReadReg(MSP)
TCA08 6397:292.384 - 0.022ms returns 0x1FFF8FD8
TCA08 6397:292.400 JLINK_ReadReg(PSP)
TCA08 6397:292.416 - 0.023ms returns 0x1FFF9000
TCA08 6397:292.432 JLINK_ReadReg(CFBP)
TCA08 6397:292.447 - 0.023ms returns 0x00000000
TCA08 6397:292.464 JLINK_ReadReg(FPSCR)
TCA08 6397:295.386 - 2.935ms returns 0x00000000
TCA08 6397:295.409 JLINK_ReadReg(FPS0)
TCA08 6397:295.424 - 0.023ms returns 0xD93ED23D
TCA08 6397:295.441 JLINK_ReadReg(FPS1)
TCA08 6397:295.456 - 0.023ms returns 0xA7DF33EB
TCA08 6397:295.472 JLINK_ReadReg(FPS2)
TCA08 6397:295.488 - 0.023ms returns 0x006084F7
TCA08 6397:295.504 JLINK_ReadReg(FPS3)
TCA08 6397:295.520 - 0.023ms returns 0x940EE899
TCA08 6397:295.536 JLINK_ReadReg(FPS4)
TCA08 6397:295.552 - 0.023ms returns 0xD6D0B20F
TCA08 6397:295.568 JLINK_ReadReg(FPS5)
TCA08 6397:295.583 - 0.023ms returns 0x545FAB67
TCA08 6397:295.599 JLINK_ReadReg(FPS6)
TCA08 6397:295.615 - 0.023ms returns 0x7C38D098
TCA08 6397:295.631 JLINK_ReadReg(FPS7)
TCA08 6397:295.647 - 0.023ms returns 0x07BEA6A4
TCA08 6397:295.663 JLINK_ReadReg(FPS8)
TCA08 6397:295.679 - 0.023ms returns 0x8B7EE289
TCA08 6397:295.695 JLINK_ReadReg(FPS9)
TCA08 6397:295.710 - 0.023ms returns 0xDDD84C3E
TCA08 6397:295.727 JLINK_ReadReg(FPS10)
TCA08 6397:295.743 - 0.024ms returns 0x7A598C95
TCA08 6397:295.760 JLINK_ReadReg(FPS11)
TCA08 6397:295.775 - 0.023ms returns 0xEB16C194
TCA08 6397:295.791 JLINK_ReadReg(FPS12)
TCA08 6397:295.807 - 0.023ms returns 0x4870BA85
TCA08 6397:295.824 JLINK_ReadReg(FPS13)
TCA08 6397:295.839 - 0.023ms returns 0xF112C1FD
TCA08 6397:295.856 JLINK_ReadReg(FPS14)
TCA08 6397:295.872 - 0.023ms returns 0xC7A07F6D
TCA08 6397:295.888 JLINK_ReadReg(FPS15)
TCA08 6397:295.904 - 0.023ms returns 0x194E1C61
TCA08 6397:295.920 JLINK_ReadReg(FPS16)
TCA08 6397:295.936 - 0.023ms returns 0x7A8CF1D3
TCA08 6397:295.952 JLINK_ReadReg(FPS17)
TCA08 6397:295.968 - 0.023ms returns 0xFBFF560B
TCA08 6397:295.984 JLINK_ReadReg(FPS18)
TCA08 6397:296.004 - 0.028ms returns 0xE520F91B
TCA08 6397:296.025 JLINK_ReadReg(FPS19)
TCA08 6397:296.043 - 0.027ms returns 0x46F692A3
TCA08 6397:296.062 JLINK_ReadReg(FPS20)
TCA08 6397:296.078 - 0.031ms returns 0xD3C9EC29
TCA08 6397:296.101 JLINK_ReadReg(FPS21)
TCA08 6397:296.123 - 0.029ms returns 0xAE854B2C
TCA08 6397:296.139 JLINK_ReadReg(FPS22)
TCA08 6397:296.155 - 0.023ms returns 0xD2BF27D5
TCA08 6397:296.171 JLINK_ReadReg(FPS23)
TCA08 6397:296.187 - 0.023ms returns 0x9FF620C3
TCA08 6397:296.203 JLINK_ReadReg(FPS24)
TCA08 6397:296.218 - 0.023ms returns 0xFF052BD5
TCA08 6397:296.234 JLINK_ReadReg(FPS25)
TCA08 6397:296.250 - 0.023ms returns 0xD339DCEC
TCA08 6397:296.268 JLINK_ReadReg(FPS26)
TCA08 6397:296.285 - 0.024ms returns 0x9F2E9B4F
TCA08 6397:296.301 JLINK_ReadReg(FPS27)
TCA08 6397:296.316 - 0.023ms returns 0x90DF1379
TCA08 6397:296.333 JLINK_ReadReg(FPS28)
TCA08 6397:296.349 - 0.023ms returns 0xCD95216C
TCA08 6397:296.365 JLINK_ReadReg(FPS29)
TCA08 6397:296.380 - 0.023ms returns 0xAAF48D96
TCA08 6397:296.396 JLINK_ReadReg(FPS30)
TCA08 6397:296.412 - 0.023ms returns 0x313264F6
TCA08 6397:296.428 JLINK_ReadReg(FPS31)
TCA08 6397:296.444 - 0.023ms returns 0x465C50EF
TCA08 6397:296.480 JLINK_ReadMemEx(0x00025100, 0x350 Bytes, Flags = 0x02000000)
TCA08 6397:296.502   CPU_ReadMem(896 bytes @ 0x00025100)
TCA08 6397:300.466    -- Updating C cache (896 bytes @ 0x00025100)
TCA08 6397:300.568    -- Read from C cache (848 bytes @ 0x00025100)
TCA08 6397:300.593   Data:  FF FF FF FF FF FF FF FF FF FF FF FF FF FF FF FF ...
TCA08 6397:300.617 - 4.144ms returns 848 (0x350)
TB640 6412:092.558 JLINK_ReadMemEx(0x00000294, 0x3C Bytes, Flags = 0x02000000)
TB640 6412:092.755   CPU_ReadMem(128 bytes @ 0x00000280)
TB640 6412:093.579    -- Updating C cache (128 bytes @ 0x00000280)
TB640 6412:093.624    -- Read from C cache (60 bytes @ 0x00000294)
TB640 6412:093.651   Data:  10 48 4F F0 77 01 01 60 0F 48 4F F0 77 01 01 60 ...
TB640 6412:093.676 - 1.126ms returns 60 (0x3C)
TB640 6412:093.696 JLINK_ReadMemEx(0x00000294, 0x2 Bytes, Flags = 0x02000000)
TB640 6412:093.715    -- Read from C cache (2 bytes @ 0x00000294)
TB640 6412:093.739   Data:  10 48
TB640 6412:093.764 - 0.076ms returns 2 (0x2)
TB640 6412:093.783 JLINK_ReadMemEx(0x00000296, 0x2 Bytes, Flags = 0x02000000)
TB640 6412:093.800    -- Read from C cache (2 bytes @ 0x00000296)
TB640 6412:093.824   Data:  4F F0
TB640 6412:093.848 - 0.074ms returns 2 (0x2)
TB640 6412:093.867 JLINK_ReadMemEx(0x00000294, 0x2 Bytes, Flags = 0x02000000)
TB640 6412:093.885    -- Read from C cache (2 bytes @ 0x00000294)
TB640 6412:093.911   Data:  10 48
TB640 6412:093.936 - 0.077ms returns 2 (0x2)
TB640 6412:093.954 JLINK_HasError()
TB640 6412:093.978 JLINK_Step()
TB640 6412:094.289    -- Read from C cache (2 bytes @ 0x00000294)
TB640 6412:094.345   CPU_ReadMem(4 bytes @ 0xE000ED18)
TB640 6412:094.640   CPU_WriteMem(4 bytes @ 0xE000ED18)
TB640 6412:094.958   CPU_ReadMem(4 bytes @ 0xE000ED18)
TB640 6412:095.283   CPU_WriteMem(4 bytes @ 0xE000ED18)
TB640 6412:095.592    -- Read from C cache (4 bytes @ 0x000002D8)
TB640 6412:095.648   -- Simulated
TB640 6412:095.674 - 1.705ms returns 0
TB640 6412:095.694 JLINK_HasError()
TB640 6412:095.712 JLINK_ReadReg(R15 (PC))
TB640 6412:095.731 - 0.027ms returns 0x00000296
TB640 6412:095.749 JLINK_ReadReg(XPSR)
TB640 6412:095.766 - 0.025ms returns 0x01000000
TB640 6412:095.829 JLINK_HasError()
TB640 6412:095.849 JLINK_ReadReg(R0)
TB640 6412:095.866 - 0.025ms returns 0x40050804
TB640 6412:095.884 JLINK_ReadReg(R1)
TB640 6412:095.901 - 0.025ms returns 0x40010400
TB640 6412:095.918 JLINK_ReadReg(R2)
TB640 6412:095.935 - 0.025ms returns 0x1FFF856C
TB640 6412:095.952 JLINK_ReadReg(R3)
TB640 6412:095.969 - 0.024ms returns 0x00000000
TB640 6412:095.986 JLINK_ReadReg(R4)
TB640 6412:096.003 - 0.024ms returns 0x00000000
TB640 6412:096.020 JLINK_ReadReg(R5)
TB640 6412:096.037 - 0.024ms returns 0x00000000
TB640 6412:096.054 JLINK_ReadReg(R6)
TB640 6412:096.071 - 0.025ms returns 0x00000000
TB640 6412:096.089 JLINK_ReadReg(R7)
TB640 6412:096.105 - 0.025ms returns 0x00000000
TB640 6412:096.123 JLINK_ReadReg(R8)
TB640 6412:096.139 - 0.024ms returns 0x00000000
TB640 6412:096.157 JLINK_ReadReg(R9)
TB640 6412:096.173 - 0.024ms returns 0x1FFF8568
TB640 6412:096.191 JLINK_ReadReg(R10)
TB640 6412:096.208 - 0.025ms returns 0x00000000
TB640 6412:096.225 JLINK_ReadReg(R11)
TB640 6412:096.242 - 0.024ms returns 0x00000000
TB640 6412:096.259 JLINK_ReadReg(R12)
TB640 6412:096.276 - 0.025ms returns 0x00000000
TB640 6412:096.293 JLINK_ReadReg(R13 (SP))
TB640 6412:096.310 - 0.025ms returns 0x1FFF8FD8
TB640 6412:096.327 JLINK_ReadReg(R14)
TB640 6412:096.344 - 0.025ms returns 0xFFFFFFFF
TB640 6412:096.366 JLINK_ReadReg(R15 (PC))
TB640 6412:096.385 - 0.027ms returns 0x00000296
TB640 6412:096.402 JLINK_ReadReg(XPSR)
TB640 6412:096.419 - 0.024ms returns 0x01000000
TB640 6412:096.436 JLINK_ReadReg(MSP)
TB640 6412:096.453 - 0.024ms returns 0x1FFF8FD8
TB640 6412:096.470 JLINK_ReadReg(PSP)
TB640 6412:096.487 - 0.025ms returns 0x1FFF9000
TB640 6412:096.504 JLINK_ReadReg(CFBP)
TB640 6412:096.521 - 0.025ms returns 0x00000000
TB640 6412:096.538 JLINK_ReadReg(FPSCR)
TB640 6412:096.555 - 0.025ms returns 0x00000000
TB640 6412:096.572 JLINK_ReadReg(FPS0)
TB640 6412:096.589 - 0.024ms returns 0xD93ED23D
TB640 6412:096.606 JLINK_ReadReg(FPS1)
TB640 6412:096.623 - 0.024ms returns 0xA7DF33EB
TB640 6412:096.640 JLINK_ReadReg(FPS2)
TB640 6412:096.657 - 0.024ms returns 0x006084F7
TB640 6412:096.674 JLINK_ReadReg(FPS3)
TB640 6412:096.691 - 0.025ms returns 0x940EE899
TB640 6412:096.709 JLINK_ReadReg(FPS4)
TB640 6412:096.725 - 0.024ms returns 0xD6D0B20F
TB640 6412:096.742 JLINK_ReadReg(FPS5)
TB640 6412:096.759 - 0.024ms returns 0x545FAB67
TB640 6412:096.776 JLINK_ReadReg(FPS6)
TB640 6412:096.793 - 0.024ms returns 0x7C38D098
TB640 6412:096.810 JLINK_ReadReg(FPS7)
TB640 6412:096.827 - 0.024ms returns 0x07BEA6A4
TB640 6412:096.844 JLINK_ReadReg(FPS8)
TB640 6412:096.861 - 0.024ms returns 0x8B7EE289
TB640 6412:096.878 JLINK_ReadReg(FPS9)
TB640 6412:096.894 - 0.024ms returns 0xDDD84C3E
TB640 6412:096.912 JLINK_ReadReg(FPS10)
TB640 6412:096.929 - 0.024ms returns 0x7A598C95
TB640 6412:096.946 JLINK_ReadReg(FPS11)
TB640 6412:096.962 - 0.024ms returns 0xEB16C194
TB640 6412:096.980 JLINK_ReadReg(FPS12)
TB640 6412:096.996 - 0.024ms returns 0x4870BA85
TB640 6412:097.014 JLINK_ReadReg(FPS13)
TB640 6412:097.031 - 0.025ms returns 0xF112C1FD
TB640 6412:097.048 JLINK_ReadReg(FPS14)
